
**** 04/21/19 19:40:55 ********* PSpice 9.2 (Mar 2000) ******** ID# 1 ********

 * D:\GIT\MAI\Invertor\Orcad\10_DC_sweep_27v_10-500ohm\test.sch


 ****     CIRCUIT DESCRIPTION


******************************************************************************




* Schematics Version 9.2
* Sun Apr 21 19:40:55 2019


.PARAM         Rn=5 

** Analysis setup **
.tran 0ns 5ms 2.5ms 1.57u SKIPBP
.four 400 99 V([V_sence])
.STEP  PARAM Rn LIST 
+ 5, 50, 100, 150, 200, 250, 300, 350, 400, 450, 500
.LIB "D:\GIT\MAI\Invertor\Orcad\1_Power_cascade\1STK.lib"


* From [PSPICE NETLIST] section of d:\Program Files\Orcad\PSpice\PSpice.ini:
.lib "D:\Program Files\Orcad\PSpice\UserLib\OPA_2.lib"
.lib "D:\Program Files\Orcad\PSpice\UserLib\MyLib.lib"
.lib "nom.lib"

.INC "test.net"



**** INCLUDING test.net ****
* Schematics Netlist *



R_R2         $N_0002 $N_0001  100k  
R_R3         $N_0004 $N_0003  1k  
X_U1A         0 $N_0002 +15 -15 $N_0001 TL082
R_R4         I_sence $N_0005  1k  
X_U2A         $N_0003 $N_0005 +15 -15 $N_0006 TL082
C_C1         $N_0005 0  100p  
R_R5         $N_0003 $N_0006  100k  
R_R6         $N_0006 $N_0007  10k  
R_R14         $N_0009 $N_0008  10  
E_E1         $N_0010 $N_0011 aa 0 1
L_L1         0 I_sence  5H  
R_R15         I_sence 0  33  
D_D1         $N_0011 $N_0012 Dbreak-X 
E_E2         $N_0008 0 bb 0 1
M_M2         $N_0011 $N_0009 0 0 IRF255
D_D2         0 $N_0011 Dbreak-X 
L_L2         V_sence 0  12mH  
M_M3         $N_0012 $N_0014 $N_0013 $N_0013 IRF255
M_M4         $N_0013 $N_0015 0 0 IRF255
E_E3         $N_0016 $N_0013 bb 0 1
E_E4         $N_0017 0 aa 0 1
R_R16         $N_0015 $N_0017  10  
R_R17         $N_0014 $N_0016  10  
D_D3         0 $N_0013 Dbreak-X 
D_D4         $N_0013 $N_0012 Dbreak-X 
L_L3         $N_0018 $N_0013  50uH  
L_L4         $N_0019 $N_0018  1mH  
Kn_K1         L_L5 L_L1     1
Kn_K2         L_L4 L_L2     1
L_L5         $N_0011 $N_0019  5uH  
E_LIMIT1         $N_0004 0 VALUE {LIMIT(V($N_0001),-1,1)}
C_C2         $N_0007 0  100p  
V_V3         -15 0 -15
V_V4         +15 0 15
V_V1         $N_0020 0  
+SIN 0 5 400 0 0 0
R_R7         $N_0021 +15  10k  
R_R8         0 $N_0021  10k  
R_R9         $N_0022 0  10k  
R_R10         -15 $N_0022  10k  
R_R11         0 bb  10k  
X_U3A         $N_0007 $N_0021 +15 -15 bb TL082
R_R12         0 aa  10k  
X_U4A         $N_0022 $N_0007 +15 -15 aa TL082
R_R1         $N_0020 $N_0002  5k  
R_R22         V_sence $N_0023  5k  
R_R21         $N_0024 $N_0002  5k  
R_R20         $N_0025 $N_0024  5k  
X_U5A         0 $N_0025 +15 -15 $N_0024 TL082
R_R19         V_sence $N_0025  50k  
C_C3         V_sence 0  10u  
C_C4         $N_0025 $N_0023  220p  
M_M1         $N_0012 $N_0026 $N_0011 $N_0011 IRF255
R_R13         $N_0026 $N_0010  10  
V_V2         $N_0012 0 27
R_R18         V_sence 0  {Rn}  

**** RESUMING test.cir ****
.PROBE V(*) I(*) W(*) D(*) NOISE(*) 


.END

**** 04/21/19 19:40:55 ********* PSpice 9.2 (Mar 2000) ******** ID# 1 ********

 * D:\GIT\MAI\Invertor\Orcad\10_DC_sweep_27v_10-500ohm\test.sch


 ****     Diode MODEL PARAMETERS


******************************************************************************




               Dbreak-X        X_U1A.dx        X_U1A.dy        X_U2A.dx        
          IS  100.000000E-12  800.000000E-18  800.000000E-18  800.000000E-18 
          RS     .05            1               1.000000E-03    1            
         CJO  150.000000E-12                   10.000000E-12                 


               X_U2A.dy        X_U3A.dx        X_U3A.dy        X_U4A.dx        
          IS  800.000000E-18  800.000000E-18  800.000000E-18  800.000000E-18 
          RS    1.000000E-03    1               1.000000E-03    1            
         CJO   10.000000E-12                   10.000000E-12                 


               X_U4A.dy        X_U5A.dx        X_U5A.dy        
          IS  800.000000E-18  800.000000E-18  800.000000E-18 
          RS    1.000000E-03    1               1.000000E-03 
         CJO   10.000000E-12                   10.000000E-12 


**** 04/21/19 19:40:55 ********* PSpice 9.2 (Mar 2000) ******** ID# 1 ********

 * D:\GIT\MAI\Invertor\Orcad\10_DC_sweep_27v_10-500ohm\test.sch


 ****     Junction FET MODEL PARAMETERS


******************************************************************************




               X_U1A.jx        X_U2A.jx        X_U3A.jx        X_U4A.jx        
               NJF             NJF             NJF             NJF             
         VTO   -1              -1              -1              -1            
        BETA  984.200000E-06  984.200000E-06  984.200000E-06  984.200000E-06 
          IS    2.500000E-12    2.500000E-12    2.500000E-12    2.500000E-12 


               X_U5A.jx        
               NJF             
         VTO   -1            
        BETA  984.200000E-06 
          IS    2.500000E-12 


**** 04/21/19 19:40:55 ********* PSpice 9.2 (Mar 2000) ******** ID# 1 ********

 * D:\GIT\MAI\Invertor\Orcad\10_DC_sweep_27v_10-500ohm\test.sch


 ****     MOSFET MODEL PARAMETERS


******************************************************************************




               IRF255          
               NMOS            
       LEVEL    3            
           L    2.000000E-06 
           W   28            
         VTO    3.686        
          KP    1.040000E-06 
       GAMMA    0            
         PHI     .6          
      LAMBDA    0            
          RD    1.000000E-03 
          RS     .01         
          RG    7.008        
          RB    6.906000E-03 
         RDS    1.000000E+06 
          IS  562.200000E-09 
          JS    0            
           N    1.833        
          PB    2.532        
        PBSW    2.532        
         CBD    5.886000E-09 
          CJ    0            
        CJSW    0            
          MJ    1.089        
        CGSO   43.180000E-12 
        CGDO    7.890000E-12 
        CGBO    0            
         TOX    2.000000E-06 
          XJ    0            
       UCRIT   10.000000E+03 
       DELTA    0            
         ETA    0            
      DIOMOD    1            
         VFB    0            
        LETA    0            
        WETA    0            
          U0    0            
        TEMP    0            
         VDD    0            
       XPART    0            


**** 04/21/19 19:40:55 ********* PSpice 9.2 (Mar 2000) ******** ID# 1 ********

 * D:\GIT\MAI\Invertor\Orcad\10_DC_sweep_27v_10-500ohm\test.sch


 ****     FOURIER ANALYSIS                 TEMPERATURE =   27.000 DEG C

 ****     CURRENT STEP                     PARAM RN =    5     


******************************************************************************



FOURIER COMPONENTS OF TRANSIENT RESPONSE V(V_sence)



 DC COMPONENT =  -1.498779E+00

 HARMONIC   FREQUENCY    FOURIER    NORMALIZED    PHASE        NORMALIZED
    NO         (HZ)     COMPONENT    COMPONENT    (DEG)       PHASE (DEG)

     1     4.000E+02    4.290E+01    1.000E+00   -1.403E+00    0.000E+00
     2     8.000E+02    2.055E+00    4.789E-02    7.452E+01    7.732E+01
     3     1.200E+03    2.715E+00    6.327E-02   -2.217E+01   -1.796E+01
     4     1.600E+03    7.641E-01    1.781E-02   -1.269E+02   -1.213E+02
     5     2.000E+03    9.132E-01    2.128E-02    1.334E+02    1.405E+02
     6     2.400E+03    1.661E-01    3.871E-03   -1.119E+02   -1.034E+02
     7     2.800E+03    1.086E-01    2.531E-03   -1.570E+02   -1.472E+02
     8     3.200E+03    2.589E-01    6.036E-03    2.053E+01    3.175E+01
     9     3.600E+03    9.545E-02    2.225E-03   -7.134E+01   -5.872E+01
    10     4.000E+03    1.284E-01    2.994E-03    1.520E+02    1.661E+02
    11     4.400E+03    7.034E-02    1.640E-03   -2.585E+01   -1.042E+01
    12     4.800E+03    5.722E-02    1.334E-03   -1.698E+02   -1.529E+02
    13     5.200E+03    5.437E-02    1.267E-03    6.101E+01    7.924E+01
    14     5.600E+03    7.301E-02    1.702E-03   -2.537E+01   -5.730E+00
    15     6.000E+03    3.818E-02    8.900E-04    1.677E+02    1.887E+02
    16     6.400E+03    4.091E-02    9.536E-04    4.863E+01    7.108E+01
    17     6.800E+03    6.400E-02    1.492E-03   -9.085E+01   -6.700E+01
    18     7.200E+03    6.508E-02    1.517E-03    4.013E+01    6.538E+01
    19     7.600E+03    3.625E-02    8.449E-04   -1.364E+01    1.302E+01
    20     8.000E+03    4.969E-02    1.158E-03   -1.347E+02   -1.066E+02
    21     8.400E+03    5.326E-02    1.241E-03    7.927E+01    1.087E+02
    22     8.800E+03    3.803E-02    8.865E-04    1.590E+02    1.899E+02
    23     9.200E+03    8.879E-02    2.070E-03   -1.620E+02   -1.297E+02
    24     9.600E+03    2.796E-01    6.517E-03   -1.491E+01    1.876E+01
    25     1.000E+04    2.450E-01    5.711E-03    3.471E+01    6.979E+01
    26     1.040E+04    3.365E-01    7.845E-03    1.477E+02    1.841E+02
    27     1.080E+04    6.094E-01    1.421E-02   -1.263E+02   -8.845E+01
    28     1.120E+04    1.954E-01    4.556E-03   -9.144E+01   -5.216E+01
    29     1.160E+04    1.058E+00    2.466E-02    5.525E+01    9.594E+01
    30     1.200E+04    3.329E-01    7.759E-03    9.945E+00    5.203E+01
    31     1.240E+04    1.000E+00    2.332E-02   -1.254E+02   -8.188E+01
    32     1.280E+04    3.322E-01    7.743E-03    1.615E+02    2.064E+02
    33     1.320E+04    2.488E-01    5.798E-03    5.055E+01    9.684E+01
    34     1.360E+04    8.709E-02    2.030E-03   -8.044E+01   -3.275E+01
    35     1.400E+04    3.899E-01    9.088E-03    5.443E+01    1.035E+02
    36     1.440E+04    1.290E-01    3.006E-03    6.210E+01    1.126E+02
    37     1.480E+04    2.842E-01    6.625E-03   -1.352E+02   -8.331E+01
    38     1.520E+04    9.318E-02    2.172E-03   -2.919E+01    2.412E+01
    39     1.560E+04    3.135E-01    7.306E-03   -1.363E+02   -8.156E+01
    40     1.600E+04    9.554E-02    2.227E-03   -8.983E+01   -3.371E+01
    41     1.640E+04    1.896E-01    4.420E-03    5.773E+01    1.152E+02
    42     1.680E+04    1.924E-01    4.485E-03    1.480E+02    2.069E+02
    43     1.720E+04    2.901E-01    6.762E-03    5.712E+01    1.174E+02
    44     1.760E+04    1.754E-01    4.088E-03    1.383E+02    2.001E+02
    45     1.800E+04    3.240E-02    7.551E-04   -7.747E+01   -1.435E+01
    46     1.840E+04    1.214E-01    2.830E-03   -1.667E+01    4.786E+01
    47     1.880E+04    2.519E-01    5.871E-03   -9.847E+01   -3.254E+01
    48     1.920E+04    2.701E-01    6.296E-03   -1.835E+01    4.899E+01
    49     1.960E+04    2.238E-01    5.217E-03   -8.011E+01   -1.136E+01
    50     2.000E+04    1.382E-01    3.222E-03    3.035E+00    7.318E+01
    51     2.040E+04    1.331E-01    3.102E-03   -4.917E+01    2.237E+01
    52     2.080E+04    3.004E-02    7.002E-04    8.569E+01    1.586E+02
    53     2.120E+04    1.571E-01    3.663E-03    4.455E+01    1.189E+02
    54     2.160E+04    2.350E-01    5.478E-03    1.738E+02    2.496E+02
    55     2.200E+04    4.710E-02    1.098E-03    9.583E+01    1.730E+02
    56     2.240E+04    1.371E-01    3.196E-03   -1.611E+02   -8.253E+01
    57     2.280E+04    2.103E-01    4.902E-03    7.692E+01    1.569E+02
    58     2.320E+04    1.664E-01    3.877E-03    1.761E+02    2.575E+02
    59     2.360E+04    5.860E-02    1.366E-03   -9.640E+01   -1.363E+01
    60     2.400E+04    2.081E-01    4.851E-03   -1.621E+02   -7.797E+01
    61     2.440E+04    1.439E-01    3.355E-03    1.015E+02    1.871E+02
    62     2.480E+04    1.746E-02    4.070E-04    1.768E+02    2.638E+02
    63     2.520E+04    6.841E-03    1.595E-04    1.727E+01    1.057E+02
    64     2.560E+04    1.117E-01    2.604E-03    1.619E+02    2.517E+02
    65     2.600E+04    5.504E-02    1.283E-03   -1.116E+02   -2.045E+01
    66     2.640E+04    6.786E-02    1.582E-03   -1.722E+02   -7.958E+01
    67     2.680E+04    3.511E-02    8.184E-04    1.441E+02    2.381E+02
    68     2.720E+04    3.920E-02    9.137E-04    1.560E+02    2.514E+02
    69     2.760E+04    2.479E-02    5.779E-04    9.950E+01    1.963E+02
    70     2.800E+04    5.478E-02    1.277E-03    1.269E+02    2.251E+02
    71     2.840E+04    4.849E-02    1.130E-03   -1.196E+02   -1.998E+01
    72     2.880E+04    1.226E-02    2.858E-04    1.658E+02    2.668E+02
    73     2.920E+04    3.637E-02    8.477E-04   -1.358E+02   -3.343E+01
    74     2.960E+04    2.329E-02    5.428E-04   -1.527E+02   -4.887E+01
    75     3.000E+04    2.668E-02    6.220E-04    1.091E+02    2.143E+02
    76     3.040E+04    3.731E-02    8.696E-04    1.503E+02    2.569E+02
    77     3.080E+04    1.614E-02    3.763E-04    1.422E+02    2.502E+02
    78     3.120E+04    1.803E-02    4.202E-04    1.123E+02    2.217E+02
    79     3.160E+04    3.350E-02    7.809E-04   -1.191E+02   -8.297E+00
    80     3.200E+04    3.563E-02    8.304E-04   -2.008E+01    9.215E+01
    81     3.240E+04    9.700E-03    2.261E-04    1.142E+02    2.279E+02
    82     3.280E+04    3.060E-02    7.133E-04   -1.518E+02   -3.679E+01
    83     3.320E+04    2.369E-03    5.521E-05   -1.153E+02    1.116E+00
    84     3.360E+04    2.691E-02    6.273E-04    1.662E+02    2.840E+02
    85     3.400E+04    1.946E-02    4.537E-04    9.997E+01    2.192E+02
    86     3.440E+04    2.463E-02    5.740E-04    1.490E+02    2.697E+02
    87     3.480E+04    2.410E-02    5.618E-04   -9.578E+01    2.627E+01
    88     3.520E+04    2.649E-02    6.175E-04    1.175E+01    1.352E+02
    89     3.560E+04    1.076E-02    2.507E-04    1.657E+02    2.905E+02
    90     3.600E+04    3.392E-02    7.906E-04    1.450E+01    1.408E+02
    91     3.640E+04    1.039E-02    2.421E-04    1.212E+01    1.398E+02
    92     3.680E+04    2.484E-02    5.790E-04   -1.323E+02   -3.275E+00
    93     3.720E+04    1.117E-02    2.604E-04   -1.456E+02   -1.516E+01
    94     3.760E+04    2.603E-02    6.068E-04   -1.388E+02   -6.917E+00
    95     3.800E+04    9.957E-03    2.321E-04   -1.754E+02   -4.208E+01
    96     3.840E+04    1.784E-02    4.159E-04   -1.512E+02   -1.654E+01
    97     3.880E+04    1.199E-03    2.795E-05    2.103E+01    1.571E+02
    98     3.920E+04    8.285E-03    1.931E-04    1.261E+02    2.636E+02
    99     3.960E+04    7.091E-03    1.653E-04   -1.349E+02    3.982E+00


     TOTAL HARMONIC DISTORTION =   9.704210E+00 PERCENT

**** 04/21/19 19:40:55 ********* PSpice 9.2 (Mar 2000) ******** ID# 1 ********

 * D:\GIT\MAI\Invertor\Orcad\10_DC_sweep_27v_10-500ohm\test.sch


 ****     FOURIER ANALYSIS                 TEMPERATURE =   27.000 DEG C

 ****     CURRENT STEP                     PARAM RN =   50    


******************************************************************************



FOURIER COMPONENTS OF TRANSIENT RESPONSE V(V_sence)



 DC COMPONENT =  -4.202511E-01

 HARMONIC   FREQUENCY    FOURIER    NORMALIZED    PHASE        NORMALIZED
    NO         (HZ)     COMPONENT    COMPONENT    (DEG)       PHASE (DEG)

     1     4.000E+02    4.805E+01    1.000E+00   -1.440E+00    0.000E+00
     2     8.000E+02    2.527E-01    5.259E-03    6.131E+01    6.419E+01
     3     1.200E+03    1.468E-01    3.056E-03   -1.648E+01   -1.216E+01
     4     1.600E+03    4.699E-02    9.779E-04   -3.724E+01   -3.148E+01
     5     2.000E+03    2.800E-02    5.829E-04   -1.293E+02   -1.221E+02
     6     2.400E+03    2.056E-02    4.280E-04   -1.488E+02   -1.401E+02
     7     2.800E+03    1.291E-02    2.686E-04   -1.061E+02   -9.597E+01
     8     3.200E+03    4.852E-03    1.010E-04   -4.622E+01   -3.469E+01
     9     3.600E+03    1.106E-02    2.302E-04   -5.521E+01   -4.224E+01
    10     4.000E+03    1.110E-02    2.311E-04   -6.078E+01   -4.638E+01
    11     4.400E+03    7.891E-03    1.642E-04    1.366E+02    1.524E+02
    12     4.800E+03    1.512E-02    3.146E-04   -4.942E+01   -3.213E+01
    13     5.200E+03    9.254E-03    1.926E-04    1.799E+02    1.987E+02
    14     5.600E+03    4.465E-03    9.294E-05    1.441E+02    1.643E+02
    15     6.000E+03    5.861E-03    1.220E-04   -1.115E+02   -8.987E+01
    16     6.400E+03    2.007E-02    4.178E-04   -4.377E+01   -2.072E+01
    17     6.800E+03    1.341E-02    2.791E-04   -6.787E+01   -4.338E+01
    18     7.200E+03    6.263E-03    1.303E-04   -1.141E+02   -8.820E+01
    19     7.600E+03    1.646E-02    3.426E-04   -4.549E+01   -1.812E+01
    20     8.000E+03    2.204E-02    4.588E-04   -1.120E+02   -8.323E+01
    21     8.400E+03    1.311E-02    2.730E-04   -1.664E+02   -1.361E+02
    22     8.800E+03    1.398E-02    2.909E-04   -9.894E+01   -6.725E+01
    23     9.200E+03    6.931E-03    1.443E-04   -3.859E+01   -5.456E+00
    24     9.600E+03    1.081E-02    2.250E-04   -1.046E+02   -7.008E+01
    25     1.000E+04    2.195E-02    4.568E-04   -6.224E+01   -2.623E+01
    26     1.040E+04    3.463E-02    7.208E-04   -9.982E+01   -6.237E+01
    27     1.080E+04    8.490E-02    1.767E-03    1.619E+02    2.008E+02
    28     1.120E+04    1.344E-01    2.797E-03    5.905E+01    9.939E+01
    29     1.160E+04    2.258E-01    4.700E-03   -3.700E+01    4.779E+00
    30     1.200E+04    3.104E-01    6.461E-03   -1.292E+02   -8.601E+01
    31     1.240E+04    3.635E-01    7.565E-03    1.388E+02    1.834E+02
    32     1.280E+04    4.251E-01    8.848E-03    4.270E+01    8.880E+01
    33     1.320E+04    4.593E-01    9.560E-03   -5.089E+01   -3.352E+00
    34     1.360E+04    4.362E-01    9.080E-03   -1.446E+02   -9.561E+01
    35     1.400E+04    3.046E-01    6.341E-03    1.059E+02    1.563E+02
    36     1.440E+04    9.880E-02    2.056E-03   -1.353E+01    3.832E+01
    37     1.480E+04    1.911E-01    3.978E-03    1.448E+02    1.981E+02
    38     1.520E+04    3.236E-01    6.735E-03   -1.355E+01    4.119E+01
    39     1.560E+04    3.470E-01    7.223E-03   -7.472E+01   -1.854E+01
    40     1.600E+04    2.568E-01    5.346E-03    1.049E+02    1.625E+02
    41     1.640E+04    2.479E-01    5.159E-03   -1.568E+02   -9.772E+01
    42     1.680E+04    3.415E-01    7.107E-03   -1.565E+02   -9.603E+01
    43     1.720E+04    4.491E-01    9.347E-03    4.588E+00    6.653E+01
    44     1.760E+04    2.359E-01    4.909E-03    9.782E+01    1.612E+02
    45     1.800E+04    1.355E-01    2.821E-03    3.931E+01    1.041E+02
    46     1.840E+04    1.485E-01    3.090E-03   -9.994E+01   -3.367E+01
    47     1.880E+04    8.205E-02    1.708E-03    1.464E+02    2.141E+02
    48     1.920E+04    4.770E-01    9.928E-03   -1.156E+02   -4.646E+01
    49     1.960E+04    1.324E-01    2.755E-03   -3.228E+00    6.735E+01
    50     2.000E+04    2.413E-01    5.023E-03   -1.411E+02   -6.912E+01
    51     2.040E+04    2.135E-01    4.444E-03    1.546E+01    8.893E+01
    52     2.080E+04    1.807E-01    3.761E-03    1.146E+02    1.895E+02
    53     2.120E+04    1.764E-01    3.671E-03    5.056E+01    1.269E+02
    54     2.160E+04    2.387E-01    4.968E-03    9.083E+01    1.686E+02
    55     2.200E+04    1.428E-01    2.972E-03    7.905E+01    1.583E+02
    56     2.240E+04    1.780E-01    3.704E-03    7.882E+01    1.595E+02
    57     2.280E+04    9.113E-02    1.897E-03    8.614E+01    1.682E+02
    58     2.320E+04    8.952E-02    1.863E-03    7.854E+01    1.621E+02
    59     2.360E+04    9.588E-02    1.996E-03    8.932E+01    1.743E+02
    60     2.400E+04    7.620E-02    1.586E-03    4.162E+01    1.280E+02
    61     2.440E+04    8.931E-03    1.859E-04   -4.050E+01    4.737E+01
    62     2.480E+04    5.661E-02    1.178E-03    1.546E+02    2.439E+02
    63     2.520E+04    8.873E-02    1.847E-03    8.621E+01    1.770E+02
    64     2.560E+04    6.696E-02    1.394E-03   -1.890E+00    9.030E+01
    65     2.600E+04    4.731E-02    9.848E-04   -1.098E+02   -1.617E+01
