
**** 04/21/19 19:01:47 ********* PSpice 9.2 (Mar 2000) ******** ID# 1 ********

 * D:\GIT\MAI\Invertor\Orcad\9_DC_sweep_18-36v_10ohm\test.sch


 ****     CIRCUIT DESCRIPTION


******************************************************************************




* Schematics Version 9.2
* Sun Apr 21 19:01:47 2019


.PARAM         Ep=18 

** Analysis setup **
.tran 0ns 5ms 2.5ms 1.57u SKIPBP
.four 400 99 V([V_sence])
.STEP  PARAM Ep LIST 
+ 18, 20, 22, 24, 26, 27, 28,  30, 32, 34, 36
.LIB "D:\GIT\MAI\Invertor\Orcad\1_Power_cascade\1STK.lib"


* From [PSPICE NETLIST] section of d:\Program Files\Orcad\PSpice\PSpice.ini:
.lib "D:\Program Files\Orcad\PSpice\UserLib\OPA_2.lib"
.lib "D:\Program Files\Orcad\PSpice\UserLib\MyLib.lib"
.lib "nom.lib"

.INC "test.net"



**** INCLUDING test.net ****
* Schematics Netlist *



R_R2         $N_0002 $N_0001  100k  
R_R3         $N_0004 $N_0003  1k  
X_U1A         0 $N_0002 +15 -15 $N_0001 TL082
R_R4         I_sence $N_0005  1k  
X_U2A         $N_0003 $N_0005 +15 -15 $N_0006 TL082
C_C1         $N_0005 0  100p  
R_R5         $N_0003 $N_0006  100k  
R_R6         $N_0006 $N_0007  10k  
R_R14         $N_0009 $N_0008  10  
E_E1         $N_0010 $N_0011 aa 0 1
L_L1         0 I_sence  5H  
R_R15         I_sence 0  33  
D_D1         $N_0011 $N_0012 Dbreak-X 
E_E2         $N_0008 0 bb 0 1
M_M2         $N_0011 $N_0009 0 0 IRF255
D_D2         0 $N_0011 Dbreak-X 
L_L2         V_sence 0  12mH  
M_M3         $N_0012 $N_0014 $N_0013 $N_0013 IRF255
M_M4         $N_0013 $N_0015 0 0 IRF255
E_E3         $N_0016 $N_0013 bb 0 1
E_E4         $N_0017 0 aa 0 1
R_R16         $N_0015 $N_0017  10  
R_R17         $N_0014 $N_0016  10  
D_D3         0 $N_0013 Dbreak-X 
D_D4         $N_0013 $N_0012 Dbreak-X 
L_L3         $N_0018 $N_0013  50uH  
L_L4         $N_0019 $N_0018  1mH  
Kn_K1         L_L5 L_L1     1
Kn_K2         L_L4 L_L2     1
L_L5         $N_0011 $N_0019  5uH  
E_LIMIT1         $N_0004 0 VALUE {LIMIT(V($N_0001),-1,1)}
C_C2         $N_0007 0  100p  
R_R18         V_sence 0  10  
V_V3         -15 0 -15
V_V4         +15 0 15
V_V1         $N_0020 0  
+SIN 0 5 400 0 0 0
R_R7         $N_0021 +15  10k  
R_R8         0 $N_0021  10k  
R_R9         $N_0022 0  10k  
R_R10         -15 $N_0022  10k  
R_R11         0 bb  10k  
X_U3A         $N_0007 $N_0021 +15 -15 bb TL082
R_R12         0 aa  10k  
X_U4A         $N_0022 $N_0007 +15 -15 aa TL082
R_R1         $N_0020 $N_0002  5k  
R_R22         V_sence $N_0023  5k  
R_R21         $N_0024 $N_0002  5k  
R_R20         $N_0025 $N_0024  5k  
X_U5A         0 $N_0025 +15 -15 $N_0024 TL082
R_R19         V_sence $N_0025  50k  
C_C3         V_sence 0  10u  
C_C4         $N_0025 $N_0023  220p  
M_M1         $N_0012 $N_0026 $N_0011 $N_0011 IRF255
R_R13         $N_0026 $N_0010  10  
V_V2         $N_0012 0 {Ep}

**** RESUMING test.cir ****
.PROBE V(*) I(*) W(*) D(*) NOISE(*) 


.END

**** 04/21/19 19:01:47 ********* PSpice 9.2 (Mar 2000) ******** ID# 1 ********

 * D:\GIT\MAI\Invertor\Orcad\9_DC_sweep_18-36v_10ohm\test.sch


 ****     Diode MODEL PARAMETERS


******************************************************************************




               Dbreak-X        X_U1A.dx        X_U1A.dy        X_U2A.dx        
          IS  100.000000E-12  800.000000E-18  800.000000E-18  800.000000E-18 
          RS     .05            1               1.000000E-03    1            
         CJO  150.000000E-12                   10.000000E-12                 


               X_U2A.dy        X_U3A.dx        X_U3A.dy        X_U4A.dx        
          IS  800.000000E-18  800.000000E-18  800.000000E-18  800.000000E-18 
          RS    1.000000E-03    1               1.000000E-03    1            
         CJO   10.000000E-12                   10.000000E-12                 


               X_U4A.dy        X_U5A.dx        X_U5A.dy        
          IS  800.000000E-18  800.000000E-18  800.000000E-18 
          RS    1.000000E-03    1               1.000000E-03 
         CJO   10.000000E-12                   10.000000E-12 


**** 04/21/19 19:01:47 ********* PSpice 9.2 (Mar 2000) ******** ID# 1 ********

 * D:\GIT\MAI\Invertor\Orcad\9_DC_sweep_18-36v_10ohm\test.sch


 ****     Junction FET MODEL PARAMETERS


******************************************************************************




               X_U1A.jx        X_U2A.jx        X_U3A.jx        X_U4A.jx        
               NJF             NJF             NJF             NJF             
         VTO   -1              -1              -1              -1            
        BETA  984.200000E-06  984.200000E-06  984.200000E-06  984.200000E-06 
          IS    2.500000E-12    2.500000E-12    2.500000E-12    2.500000E-12 


               X_U5A.jx        
               NJF             
         VTO   -1            
        BETA  984.200000E-06 
          IS    2.500000E-12 


**** 04/21/19 19:01:47 ********* PSpice 9.2 (Mar 2000) ******** ID# 1 ********

 * D:\GIT\MAI\Invertor\Orcad\9_DC_sweep_18-36v_10ohm\test.sch


 ****     MOSFET MODEL PARAMETERS


******************************************************************************




               IRF255          
               NMOS            
       LEVEL    3            
           L    2.000000E-06 
           W   28            
         VTO    3.686        
          KP    1.040000E-06 
       GAMMA    0            
         PHI     .6          
      LAMBDA    0            
          RD    1.000000E-03 
          RS     .01         
          RG    7.008        
          RB    6.906000E-03 
         RDS    1.000000E+06 
          IS  562.200000E-09 
          JS    0            
           N    1.833        
          PB    2.532        
        PBSW    2.532        
         CBD    5.886000E-09 
          CJ    0            
        CJSW    0            
          MJ    1.089        
        CGSO   43.180000E-12 
        CGDO    7.890000E-12 
        CGBO    0            
         TOX    2.000000E-06 
          XJ    0            
       UCRIT   10.000000E+03 
       DELTA    0            
         ETA    0            
      DIOMOD    1            
         VFB    0            
        LETA    0            
        WETA    0            
          U0    0            
        TEMP    0            
         VDD    0            
       XPART    0            


**** 04/21/19 19:01:47 ********* PSpice 9.2 (Mar 2000) ******** ID# 1 ********

 * D:\GIT\MAI\Invertor\Orcad\9_DC_sweep_18-36v_10ohm\test.sch


 ****     FOURIER ANALYSIS                 TEMPERATURE =   27.000 DEG C

 ****     CURRENT STEP                     PARAM EP =   18    


******************************************************************************



FOURIER COMPONENTS OF TRANSIENT RESPONSE V(V_sence)



 DC COMPONENT =  -2.882844E-01

 HARMONIC   FREQUENCY    FOURIER    NORMALIZED    PHASE        NORMALIZED
    NO         (HZ)     COMPONENT    COMPONENT    (DEG)       PHASE (DEG)

     1     4.000E+02    4.693E+01    1.000E+00   -1.773E+00    0.000E+00
     2     8.000E+02    4.578E-02    9.755E-04    1.304E+02    1.339E+02
     3     1.200E+03    4.440E-01    9.462E-03    1.313E+00    6.633E+00
     4     1.600E+03    8.808E-02    1.877E-03   -1.361E+02   -1.290E+02
     5     2.000E+03    5.574E-02    1.188E-03   -1.748E+02   -1.660E+02
     6     2.400E+03    4.320E-02    9.206E-04    6.624E+01    7.688E+01
     7     2.800E+03    2.445E-02    5.210E-04   -8.862E+01   -7.621E+01
     8     3.200E+03    3.170E-02    6.756E-04    5.783E+00    1.997E+01
     9     3.600E+03    3.145E-02    6.702E-04    1.645E+02    1.805E+02
    10     4.000E+03    1.564E-02    3.333E-04   -1.759E+02   -1.581E+02
    11     4.400E+03    8.581E-02    1.828E-03    9.115E+01    1.107E+02
    12     4.800E+03    3.977E-02    8.475E-04   -5.976E+01   -3.848E+01
    13     5.200E+03    1.017E-01    2.167E-03   -8.472E+01   -6.166E+01
    14     5.600E+03    1.704E-01    3.631E-03    1.430E+02    1.678E+02
    15     6.000E+03    1.757E-01    3.744E-03    9.873E+01    1.253E+02
    16     6.400E+03    2.739E-01    5.837E-03   -4.045E+01   -1.208E+01
    17     6.800E+03    3.198E-01    6.814E-03   -8.124E+01   -5.109E+01
    18     7.200E+03    3.861E-01    8.227E-03    1.389E+02    1.708E+02
    19     7.600E+03    4.420E-01    9.418E-03    1.098E+02    1.435E+02
    20     8.000E+03    5.329E-01    1.136E-02   -4.785E+01   -1.238E+01
    21     8.400E+03    4.506E-01    9.603E-03   -4.687E+01   -9.629E+00
    22     8.800E+03    4.850E-01    1.033E-02    1.270E+02    1.660E+02
    23     9.200E+03    2.792E-01    5.950E-03    1.657E+02    2.065E+02
    24     9.600E+03    1.811E-01    3.860E-03   -9.077E+01   -4.821E+01
    25     1.000E+04    1.852E-01    3.947E-03    7.826E+01    1.226E+02
    26     1.040E+04    2.850E-01    6.072E-03   -7.074E+00    3.903E+01
    27     1.080E+04    2.235E-01    4.763E-03   -3.897E+01    8.914E+00
    28     1.120E+04    2.646E-01    5.639E-03    1.511E+02    2.007E+02
    29     1.160E+04    1.790E-01    3.815E-03   -1.367E+02   -8.531E+01
    30     1.200E+04    1.850E-01    3.942E-03   -1.303E+02   -7.713E+01
    31     1.240E+04    1.172E-01    2.496E-03    1.374E+02    1.924E+02
    32     1.280E+04    1.833E-01    3.905E-03   -2.305E+01    3.370E+01
    33     1.320E+04    1.631E-01    3.476E-03    5.990E+01    1.184E+02
    34     1.360E+04    2.779E-01    5.921E-03    5.340E+01    1.137E+02
    35     1.400E+04    1.578E-01    3.362E-03   -4.231E+01    1.976E+01
    36     1.440E+04    1.964E-01    4.186E-03   -1.775E+02   -1.137E+02
    37     1.480E+04    1.245E-01    2.653E-03   -1.068E+02   -4.115E+01
    38     1.520E+04    1.052E-01    2.241E-03   -9.956E+01   -3.217E+01
    39     1.560E+04    1.226E-01    2.613E-03   -1.476E+02   -7.846E+01
    40     1.600E+04    2.984E-01    6.358E-03   -9.541E+01   -2.447E+01
    41     1.640E+04    1.084E-01    2.310E-03    1.393E+02    2.120E+02
    42     1.680E+04    1.014E-01    2.160E-03    2.555E+01    1.000E+02
    43     1.720E+04    1.929E-01    4.110E-03    1.507E+02    2.270E+02
    44     1.760E+04    1.491E-01    3.176E-03    7.861E+01    1.566E+02
    45     1.800E+04    4.847E-02    1.033E-03   -1.381E+02   -5.833E+01
    46     1.840E+04    1.631E-01    3.474E-03    9.598E+01    1.776E+02
    47     1.880E+04    1.473E-01    3.139E-03   -1.568E+02   -7.347E+01
    48     1.920E+04    2.114E-01    4.505E-03    8.131E+01    1.664E+02
    49     1.960E+04    1.576E-01    3.359E-03   -1.428E+02   -5.588E+01
    50     2.000E+04    8.492E-02    1.809E-03    1.370E+01    1.024E+02
    51     2.040E+04    3.811E-02    8.121E-04   -1.005E+02   -1.003E+01
    52     2.080E+04    7.047E-02    1.502E-03   -1.984E+01    7.238E+01
    53     2.120E+04    2.482E-02    5.289E-04   -4.336E+01    5.063E+01
    54     2.160E+04    7.230E-02    1.541E-03   -2.763E+01    6.813E+01
    55     2.200E+04    3.818E-02    8.136E-04   -1.576E+02   -6.003E+01
    56     2.240E+04    5.595E-02    1.192E-03    9.450E+00    1.088E+02
    57     2.280E+04    1.216E-01    2.592E-03    8.987E+00    1.101E+02
    58     2.320E+04    8.743E-02    1.863E-03   -1.203E+01    9.083E+01
    59     2.360E+04    8.009E-02    1.707E-03    5.095E+01    1.556E+02
    60     2.400E+04    1.671E-02    3.562E-04   -2.414E+01    8.226E+01
    61     2.440E+04    2.849E-02    6.070E-04   -3.170E+01    7.648E+01
    62     2.480E+04    5.870E-02    1.251E-03    6.597E+01    1.759E+02
    63     2.520E+04    3.117E-02    6.642E-04    4.804E+01    1.598E+02
    64     2.560E+04    2.434E-02    5.187E-04    2.164E+01    1.351E+02
    65     2.600E+04    4.487E-02    9.562E-04    5.119E+01    1.665E+02
    66     2.640E+04    3.941E-02    8.397E-04    8.800E+01    2.050E+02
    67     2.680E+04    5.446E-02    1.161E-03    5.907E+01    1.779E+02
    68     2.720E+04    2.273E-02    4.843E-04    3.237E+01    1.530E+02
    69     2.760E+04    2.722E-02    5.800E-04   -1.325E+02   -1.015E+01
    70     2.800E+04    2.119E-02    4.515E-04   -3.572E+01    8.842E+01
    71     2.840E+04    2.534E-02    5.400E-04   -4.173E+01    8.418E+01
    72     2.880E+04    1.942E-02    4.139E-04    8.288E+01    2.106E+02
    73     2.920E+04    1.415E-02    3.016E-04    5.845E+01    1.879E+02
    74     2.960E+04    2.274E-02    4.846E-04    1.161E+02    2.473E+02
    75     3.000E+04    5.608E-02    1.195E-03    8.952E+01    2.225E+02
    76     3.040E+04    1.199E-02    2.555E-04   -2.365E+01    1.111E+02
    77     3.080E+04    7.754E-03    1.652E-04   -2.120E+01    1.154E+02
    78     3.120E+04    2.275E-02    4.849E-04    6.095E+01    1.993E+02
    79     3.160E+04    5.662E-03    1.207E-04   -1.055E+02    3.464E+01
    80     3.200E+04    6.238E-03    1.329E-04    6.755E+01    2.094E+02
    81     3.240E+04    1.421E-02    3.028E-04   -3.445E+01    1.092E+02
    82     3.280E+04    4.525E-02    9.642E-04    1.456E+00    1.469E+02
    83     3.320E+04    1.879E-02    4.003E-04   -7.516E-01    1.464E+02
    84     3.360E+04    2.171E-02    4.626E-04   -1.579E+02   -8.929E+00
    85     3.400E+04    1.831E-02    3.901E-04    4.231E+01    1.931E+02
    86     3.440E+04    2.192E-02    4.671E-04   -1.744E+02   -2.184E+01
    87     3.480E+04    3.127E-03    6.663E-05   -6.987E+01    8.441E+01
    88     3.520E+04    5.758E-03    1.227E-04    1.311E+02    2.872E+02
    89     3.560E+04    1.549E-02    3.302E-04    1.638E+02    3.216E+02
    90     3.600E+04    1.181E-02    2.517E-04    6.127E+00    1.657E+02
    91     3.640E+04    5.445E-03    1.160E-04    5.982E+01    2.212E+02
    92     3.680E+04    4.316E-03    9.198E-05    8.585E+01    2.490E+02
    93     3.720E+04    5.850E-03    1.247E-04    1.340E+02    2.989E+02
    94     3.760E+04    7.310E-03    1.558E-04   -2.250E+01    1.442E+02
    95     3.800E+04    1.077E-02    2.295E-04    5.070E+01    2.192E+02
    96     3.840E+04    4.004E-03    8.531E-05    1.627E+02    3.329E+02
    97     3.880E+04    1.282E-02    2.732E-04    3.674E+01    2.088E+02
    98     3.920E+04    2.003E-02    4.269E-04    9.039E+01    2.642E+02
    99     3.960E+04    9.533E-03    2.031E-04    7.117E+01    2.467E+02


     TOTAL HARMONIC DISTORTION =   3.419767E+00 PERCENT

**** 04/21/19 19:01:47 ********* PSpice 9.2 (Mar 2000) ******** ID# 1 ********

 * D:\GIT\MAI\Invertor\Orcad\9_DC_sweep_18-36v_10ohm\test.sch


 ****     FOURIER ANALYSIS                 TEMPERATURE =   27.000 DEG C

 ****     CURRENT STEP                     PARAM EP =   20    


******************************************************************************



FOURIER COMPONENTS OF TRANSIENT RESPONSE V(V_sence)



 DC COMPONENT =  -2.852363E-01

 HARMONIC   FREQUENCY    FOURIER    NORMALIZED    PHASE        NORMALIZED
    NO         (HZ)     COMPONENT    COMPONENT    (DEG)       PHASE (DEG)

     1     4.000E+02    4.717E+01    1.000E+00   -1.739E+00    0.000E+00
     2     8.000E+02    4.234E-02    8.977E-04    1.734E+02    1.768E+02
     3     1.200E+03    3.185E-01    6.752E-03   -4.738E-01    4.744E+00
     4     1.600E+03    8.439E-02    1.789E-03   -1.425E+02   -1.355E+02
     5     2.000E+03    2.718E-02    5.762E-04   -1.551E+02   -1.464E+02
     6     2.400E+03    5.246E-02    1.112E-03    4.416E+01    5.459E+01
     7     2.800E+03    2.428E-02    5.147E-04   -1.258E+02   -1.136E+02
     8     3.200E+03    3.099E-02    6.569E-04    2.467E+01    3.858E+01
     9     3.600E+03    5.634E-02    1.194E-03    1.132E+02    1.288E+02
    10     4.000E+03    1.155E-02    2.448E-04   -1.587E+02   -1.413E+02
    11     4.400E+03    2.386E-02    5.059E-04    6.346E+01    8.259E+01
    12     4.800E+03    1.530E-02    3.243E-04    1.509E+02    1.718E+02
    13     5.200E+03    2.401E-02    5.091E-04   -1.765E+02   -1.539E+02
    14     5.600E+03    3.749E-02    7.949E-04    1.375E+02    1.619E+02
    15     6.000E+03    1.632E-02    3.459E-04   -5.659E+01   -3.050E+01
    16     6.400E+03    4.624E-02    9.803E-04   -7.270E+01   -4.487E+01
    17     6.800E+03    6.709E-02    1.422E-03    1.680E+02    1.976E+02
    18     7.200E+03    6.854E-02    1.453E-03    1.129E+02    1.443E+02
    19     7.600E+03    1.360E-01    2.883E-03   -1.276E+01    2.028E+01
    20     8.000E+03    2.067E-01    4.382E-03   -7.426E+01   -3.948E+01
    21     8.400E+03    2.267E-01    4.806E-03    1.533E+02    1.898E+02
    22     8.800E+03    3.534E-01    7.492E-03    1.085E+02    1.467E+02
    23     9.200E+03    3.985E-01    8.449E-03   -3.082E+01    9.176E+00
    24     9.600E+03    4.437E-01    9.407E-03   -5.518E+01   -1.344E+01
    25     1.000E+04    5.121E-01    1.086E-02    1.428E+02    1.862E+02
    26     1.040E+04    4.184E-01    8.871E-03    1.467E+02    1.920E+02
    27     1.080E+04    4.007E-01    8.495E-03   -4.888E+01   -1.924E+00
    28     1.120E+04    2.444E-01    5.181E-03    1.634E+01    6.503E+01
    29     1.160E+04    1.724E-01    3.655E-03    5.906E+01    1.095E+02
    30     1.200E+04    2.282E-01    4.837E-03   -8.473E+01   -3.255E+01
    31     1.240E+04    3.247E-01    6.883E-03   -1.795E+02   -1.256E+02
    32     1.280E+04    1.958E-01    4.151E-03   -1.725E+02   -1.168E+02
    33     1.320E+04    2.063E-01    4.373E-03   -6.732E+01   -9.932E+00
    34     1.360E+04    1.724E-01    3.654E-03    7.456E+01    1.337E+02
    35     1.400E+04    2.717E-01    5.761E-03    2.952E+01    9.039E+01
    36     1.440E+04    1.494E-01    3.167E-03    6.697E+00    6.931E+01
    37     1.480E+04    1.870E-01    3.965E-03    9.758E+01    1.619E+02
    38     1.520E+04    1.819E-01    3.857E-03   -8.358E+01   -1.749E+01
    39     1.560E+04    1.916E-01    4.062E-03   -1.446E+02   -7.674E+01
    40     1.600E+04    1.040E-01    2.205E-03   -1.370E+02   -6.744E+01
    41     1.640E+04    2.987E-01    6.332E-03   -9.435E+01   -2.304E+01
    42     1.680E+04    1.291E-01    2.737E-03    1.723E+02    2.453E+02
    43     1.720E+04    1.428E-01    3.027E-03   -8.721E+01   -1.243E+01
    44     1.760E+04    1.740E-01    3.688E-03    1.162E+02    1.927E+02
    45     1.800E+04    1.043E-01    2.211E-03    3.234E+01    1.106E+02
    46     1.840E+04    1.796E-01    3.807E-03   -1.607E+02   -8.071E+01
    47     1.880E+04    1.889E-01    4.005E-03    8.244E+01    1.642E+02
    48     1.920E+04    1.611E-01    3.416E-03    1.496E+02    2.331E+02
    49     1.960E+04    1.423E-01    3.016E-03    6.250E+01    1.477E+02
    50     2.000E+04    2.045E-01    4.336E-03   -1.474E+02   -6.047E+01
    51     2.040E+04    1.267E-01    2.687E-03    1.254E+01    1.012E+02
    52     2.080E+04    1.127E-01    2.389E-03    1.588E+02    2.492E+02
    53     2.120E+04    5.259E-02    1.115E-03   -1.097E+02   -1.751E+01
    54     2.160E+04    2.143E-02    4.544E-04    9.342E+01    1.873E+02
    55     2.200E+04    1.174E-01    2.488E-03   -2.984E+01    6.581E+01
    56     2.240E+04    5.899E-02    1.251E-03   -3.816E+01    5.923E+01
    57     2.280E+04    6.157E-02    1.305E-03   -2.215E+01    7.698E+01
    58     2.320E+04    5.221E-02    1.107E-03    2.549E+01    1.264E+02
    59     2.360E+04    3.871E-02    8.207E-04   -1.059E+02   -3.308E+00
    60     2.400E+04    7.282E-02    1.544E-03    1.464E+01    1.190E+02
    61     2.440E+04    7.781E-02    1.650E-03    2.320E+01    1.293E+02
    62     2.480E+04    7.733E-02    1.640E-03    1.030E+01    1.181E+02
    63     2.520E+04    8.490E-02    1.800E-03    3.555E+01    1.451E+02
    64     2.560E+04    1.559E-02    3.306E-04    6.764E+00    1.181E+02
    65     2.600E+04    2.759E-02    5.850E-04    1.660E+02    2.791E+02
