
**** 03/04/19 18:23:42 ********* PSpice 9.2 (Mar 2000) ******** ID# 1 ********

 * C:\Workspace_git\Invertor\Orcad\Test_Var\Schematic2.sch


 ****     CIRCUIT DESCRIPTION


******************************************************************************




* Schematics Version 9.2
* Mon Mar 04 18:23:41 2019


.PARAM         Ep=27 Rvar=5 

** Analysis setup **
.tran 0ns 5ms 2.5ms 1.57u SKIPBP
.four 400 99 V([V_sence])
.OPTIONS ABSTOL=1uA
.OPTIONS ITL4=60
.OPTIONS RELTOL=0.01
.LIB "C:\Workspace_git\Invertor\Orcad\Test_Var\Schematic2.lib"


* From [PSPICE NETLIST] section of C:\Program Files\Orcad\PSpice\PSpice.ini:
.lib "C:\Program Files\Orcad\PSpice\UserLib\Mylib.lib"
.lib "nom.lib"
.inc "C:\Program Files\Orcad\PSpice\UserLib\Mylib.lib"


**** INCLUDING Mylib.lib ****
* PSpice Model Editor - Version 9.2

*$
**************************************************************
*****************************************************************************
* TL431 MACROMODEL ***************3-26-92************************************
* REV N/A ****************************************************************DBB
*****************************************************************************
*              REFERENCE
*              |  ANODE
*              |  |  CATHODE
*              |  |  |
.SUBCKT  TL431 1  2  3
V1  6  7  DC  1.4V
I1  2  4  1E-3
R1  1  2  1.2E6
R2  4  2  RMOD 2.495E3
R3  5  7  .2
D1  3  6  DMOD1
D2  2  3  DMOD1
D3  2  7  DMOD2
E1  5  2  POLY(2)  (4,2)  (1,2)  0  710  -710
.MODEL RMOD RES (TC1=1.4E-5 TC2=-1E-6)
.MODEL DMOD1 D (RS=.3)
.MODEL DMOD2 D (RS=1E-6)
.ENDS
*$
*****************************************************************************
* AD633 Analog Multiplier Macro Model 12/93, Rev. A
* AAG/PMI
*
* Copyright 1993 by Analog Devices, Inc.
*
* Refer to "README.DOC" file for License Statement.  Use of this model
* indicates your acceptance with the terms and provisions in the License Statement.
*
* Node assignments
*             X1
*             |  X2
*             |  |  Y1
*             |  |  |  Y2
*             |  |  |  |  VNEG
*             |  |  |  |  |  Z
*             |  |  |  |  |  |  W
*             |  |  |  |  |  |  |  VPOS
*             |  |  |  |  |  |  |  |
.SUBCKT AD633 1  2  3  4  5  6  7  8
*
EREF 100 0 POLY(2) 8 0 5 0 (0,0.5,0.5)
*
* X-INPUT STAGE & POLE AT 15 MHz
*
IBX1 1 0 DC 8E-7
IBX2 2 0 DC 8E-7
EOSX 10 1 POLY(1) (16,100) (5E-3,1)
RX1A 10 11 5E6
RX1B 11 2 5E6
*
GX 100 12 10 2 1E-6
RX 12 100 1E6
CX 12 100 1.061E-14
VX1 8 13 DC 3.05
DX1 12 13 DX
VX2 14 5 DC 3.05
DX2 14 12 DX
*
* COMMON-MODE GAIN NETWORK WITH ZERO AT 560 Hz
*
ECMX 15 100 11 100 10
RCMX1 15 16 1E6
CCMX 15 16 2.8421E-10
RCMX2 16 100 1
*
* Y-INPUT STAGE & POLE AT 15 MHz
*
IBY1 3 0 DC 8E-7
IBY2 4 0 DC 8E-7
EOSY 20 3 POLY(1) (26,100) (5E-3,1)
RY1A 20 21 5E6
RY1B 21 4 5E6
*
GY 100 22 20 4 1E-6
RY 22 100 1E6
CY 22 100 1.061E-14
VY1 8 23 DC 3.05
DY1 22 23 DX
VY2 24 5 DC 3.05
DY2 24 22 DX
*
* COMMON-MODE GAIN NETWORK WITH ZERO AT 560 Hz
*
ECMY 25 100 21 100 10
RCMY1 25 26 1E6
CCMY 25 26 2.8421E-10
RCMY2 26 100 1
*
* Z-INPUT STAGE & POLE AT 15 MHz
*
IBZ1 7 0 DC 8E-7
IBZ2 6 0 DC 8E-7
RZ1 7 6 10E6
*
GZ 100 32 7 6 1E-6
RZ2 32 100 1E6
CZ 32 100 1.061E-14
VZ1 8 33 DC 3.05
DZ1 32 33 DX
VZ2 34 5 DC 3.05
DZ2 34 33 DX
*
* 50-MHz MULTIPLIER CORE & SUMMER
*
GXY 100 40 POLY(2) (12,100) (22,100) (0,0,0,0,0.1E-6)
RXY 40 100 1E6
CXY 40 100 3.1831E-15
*
* OP AMP INPUT STAGE
*
VOOS 59 40 DC 5E-3
Q1 55 32 60 QX
Q2 56 59 61 QX
R1 8 55 3.1831E4
R2 60 54 3.1313E4
R3 8 56 3.1831E4
R4 61 54 3.1313E4
I1 54 5 1E-4
*
* GAIN STAGE & DOMINANT POLE AT 316.23 Hz
*
G1 100 62 55 56 3.141637E-5
R5 62 100 1.0066E8
C3 62 100 5E-12
V1 8 63 DC 4.3399
D1 62 63 DX
V2 64 5 DC 4.3399
D2 64 62 DX
*
* NEGATIVE ZERO AT 20 MHz
*
ENZ 65 100 62 100 1E6
RNZ1 65 66 1
FNZ 65 66 VNC -1
RNZ2 66 100 1E-6
ENC 67 0 65 66 1
CNZ 67 68 7.9577E-9
VNC 68 0 DC 0
*
* POLE AT 4 MHz
*
G2 100 69 66 100 1E-6
R6 69 100 1E6
C2 69 100 3.9789E-14
*
* OP AMP OUTPUT STAGE
*
FSY 8 5 POLY(2) VZC1 VZC2 (2.8286E-3,1,1)
RDC 8 5 28E3
GZC 100 73 72 69 11.623E-3
VZC1 74 100 DC 0
DZC1 73 74 DX
VZC2 100 75 DC 0
DZC2 75 73 DX
VSC1 70 72 0.695
DSC1 69 70 DX
VSC2 72 71 0.695
DSC2 71 69 DX
GO1 72 8 8 69 11.623E-3 
RO1 8 72 86
GO2 5 72 69 5 11.623E-3 
RO2 72 5 86
LO 72 7 1E-7
*
* MODELS USED
*
.MODEL QX NPN(BF=1E4)
.MODEL DX D(IS=1E-15)
.ENDS AD633
*$

**** RESUMING Schematic2.cir ****
.INC "Schematic2.net"



**** INCLUDING Schematic2.net ****
* Schematics Netlist *



M_M1         $N_0003 $N_0002 $N_0001 $N_0001 IRF255
M_M2         $N_0001 $N_0004 0 0 IRF255
M_M3         $N_0003 $N_0006 $N_0005 $N_0005 IRF255
M_M4         $N_0005 $N_0007 0 0 IRF255
R_R1         $N_0008 V_correct  5k  
R_R2         V_correct $N_0009  100k  
R_R3         $N_0011 $N_0010  1k  
C_C1         $N_0012 0  100p  
E_LIMIT1         $N_0011 0 VALUE {LIMIT(V($N_0009),-1,1)}
L_L1         $N_0013 $N_0014  1mH  
L_L2         $N_0001 $N_0013  5uH  
L_L3         $N_0014 $N_0005  50uH  
R_R4         $N_0016 $N_0015  10k  
C_C2         $N_0015 0  100p  
R_R5         $N_0017 +15  10k  
R_R6         0 $N_0017  10k  
R_R7         $N_0018 0  10k  
R_R8         -15 $N_0018  10k  
X_U1A         0 V_correct +15 -15 $N_0009 TL082
R_R9         $N_0007 $N_0019  10  
R_R10         $N_0006 $N_0020  10  
R_R11         0 bb  10k  
R_R12         0 aa  10k  
E_E1         $N_0021 0 bb 0 1
E_E2         $N_0022 $N_0001 aa 0 1
E_E3         $N_0020 $N_0005 bb 0 1
E_E4         $N_0019 0 aa 0 1
R_R13         $N_0002 $N_0022  10  
R_R14         $N_0004 $N_0021  10  
V_V1         $N_0008 0  
+SIN 0 5 400 0 0 0
X_U2A         $N_0010 $N_0012 +15 -15 $N_0016 TL082
R_R15         I_sence $N_0012  1k  
L_L4         V_sence 0  12m  
L_L5         0 I_sence  5  
X_U3A         $N_0015 $N_0017 +15 -15 bb TL082
X_U4A         $N_0018 $N_0015 +15 -15 aa TL082
C_C3         V_sence 0  10u  
V_V2         -15 0 -15
V_V3         +15 0 15
R_R17         $N_0023 V_correct  5k  
X_U5A         0 $N_0024 +15 -15 $N_0023 TL082
R_R18         $N_0024 $N_0023  5k  
R_R19         V_sence $N_0024  50k  
R_R20         V_sence $N_0025  5k  
C_C4         $N_0025 $N_0024  220p  
R_R21         $N_0010 $N_0016  100k  
D_D5         $N_0001 $N_0003 Dbreak-X 
D_D6         0 $N_0001 Dbreak-X 
D_D7         0 $N_0005 Dbreak-X 
D_D8         $N_0005 $N_0003 Dbreak-X 
Kn_K1         L_L2 L_L5     1
Kn_K2         L_L1 L_L4     1
R_R22         V_sence 0  {Rvar}  
V_V4         $N_0003 0 {Ep}
R_R16         0 I_sence  27  

**** RESUMING Schematic2.cir ****
.PROBE V(*) I(*) W(*) D(*) NOISE(*) 


.END

**** 03/04/19 18:23:42 ********* PSpice 9.2 (Mar 2000) ******** ID# 1 ********

 * C:\Workspace_git\Invertor\Orcad\Test_Var\Schematic2.sch


 ****     Diode MODEL PARAMETERS


******************************************************************************




               Dbreak-X        X_U1A.dx        X_U1A.dy        X_U2A.dx        
          IS  100.000000E-12  800.000000E-18  800.000000E-18  800.000000E-18 
          RS     .05            1               1.000000E-03    1            
         CJO  150.000000E-12                   10.000000E-12                 


               X_U2A.dy        X_U3A.dx        X_U3A.dy        X_U4A.dx        
          IS  800.000000E-18  800.000000E-18  800.000000E-18  800.000000E-18 
          RS    1.000000E-03    1               1.000000E-03    1            
         CJO   10.000000E-12                   10.000000E-12                 


               X_U4A.dy        X_U5A.dx        X_U5A.dy        
          IS  800.000000E-18  800.000000E-18  800.000000E-18 
          RS    1.000000E-03    1               1.000000E-03 
         CJO   10.000000E-12                   10.000000E-12 


**** 03/04/19 18:23:42 ********* PSpice 9.2 (Mar 2000) ******** ID# 1 ********

 * C:\Workspace_git\Invertor\Orcad\Test_Var\Schematic2.sch


 ****     Junction FET MODEL PARAMETERS


******************************************************************************




               X_U1A.jx        X_U2A.jx        X_U3A.jx        X_U4A.jx        
               NJF             NJF             NJF             NJF             
         VTO   -1              -1              -1              -1            
        BETA  984.200000E-06  984.200000E-06  984.200000E-06  984.200000E-06 
          IS    2.500000E-12    2.500000E-12    2.500000E-12    2.500000E-12 


               X_U5A.jx        
               NJF             
         VTO   -1            
        BETA  984.200000E-06 
          IS    2.500000E-12 


**** 03/04/19 18:23:42 ********* PSpice 9.2 (Mar 2000) ******** ID# 1 ********

 * C:\Workspace_git\Invertor\Orcad\Test_Var\Schematic2.sch


 ****     MOSFET MODEL PARAMETERS


******************************************************************************




               IRF255          
               NMOS            
       LEVEL    3            
           L    2.000000E-06 
           W   28            
         VTO    3.686        
          KP    1.040000E-06 
       GAMMA    0            
         PHI     .6          
      LAMBDA    0            
          RD    1.000000E-03 
          RS     .01         
          RG    7.008        
          RB    6.906000E-03 
         RDS    1.000000E+06 
          IS  562.200000E-09 
          JS    0            
           N    1.833        
          PB    2.532        
        PBSW    2.532        
         CBD    5.886000E-09 
          CJ    0            
        CJSW    0            
          MJ    1.089        
        CGSO   43.180000E-12 
        CGDO    7.890000E-12 
        CGBO    0            
         TOX    2.000000E-06 
          XJ    0            
       UCRIT   10.000000E+03 
       DELTA    0            
         ETA    0            
      DIOMOD    1            
         VFB    0            
        LETA    0            
        WETA    0            
          U0    0            
        TEMP    0            
         VDD    0            
       XPART    0            


**** 03/04/19 18:23:42 ********* PSpice 9.2 (Mar 2000) ******** ID# 1 ********

 * C:\Workspace_git\Invertor\Orcad\Test_Var\Schematic2.sch


 ****     FOURIER ANALYSIS                 TEMPERATURE =   27.000 DEG C


******************************************************************************



FOURIER COMPONENTS OF TRANSIENT RESPONSE V(V_sence)



 DC COMPONENT =  -6.830260E-01

 HARMONIC   FREQUENCY    FOURIER    NORMALIZED    PHASE        NORMALIZED
    NO         (HZ)     COMPONENT    COMPONENT    (DEG)       PHASE (DEG)

     1     4.000E+02    4.589E+01    1.000E+00   -1.875E+00    0.000E+00
     2     8.000E+02    8.611E-01    1.877E-02    7.545E+01    7.920E+01
     3     1.200E+03    8.693E-01    1.895E-02   -1.219E+01   -6.561E+00
     4     1.600E+03    5.388E-01    1.174E-02   -1.233E+02   -1.158E+02
     5     2.000E+03    4.035E-01    8.794E-03    1.376E+02    1.469E+02
     6     2.400E+03    9.365E-02    2.041E-03    3.271E+01    4.396E+01
     7     2.800E+03    1.332E-01    2.902E-03   -6.153E+01   -4.840E+01
     8     3.200E+03    7.614E-02    1.659E-03    1.194E+02    1.344E+02
     9     3.600E+03    8.775E-02    1.912E-03    1.163E+02    1.332E+02
    10     4.000E+03    1.283E-02    2.797E-04   -2.594E+01   -7.188E+00
    11     4.400E+03    1.356E-02    2.954E-04   -1.106E+02   -8.993E+01
    12     4.800E+03    4.375E-02    9.535E-04    2.847E+01    5.098E+01
    13     5.200E+03    1.036E-01    2.259E-03   -5.238E+01   -2.800E+01
    14     5.600E+03    1.501E-02    3.271E-04    1.283E+02    1.546E+02
    15     6.000E+03    6.046E-02    1.318E-03    1.120E+02    1.401E+02
    16     6.400E+03    4.676E-02    1.019E-03    3.708E+01    6.709E+01
    17     6.800E+03    7.216E-02    1.573E-03    7.437E+01    1.063E+02
    18     7.200E+03    9.006E-02    1.963E-03    2.498E+00    3.625E+01
    19     7.600E+03    8.313E-02    1.812E-03   -1.100E+02   -7.438E+01
    20     8.000E+03    2.180E-01    4.750E-03    1.687E+02    2.062E+02
    21     8.400E+03    3.012E-01    6.564E-03    6.681E+01    1.062E+02
    22     8.800E+03    4.663E-01    1.016E-02   -2.623E+01    1.503E+01
    23     9.200E+03    4.450E-01    9.698E-03   -1.209E+02   -7.775E+01
    24     9.600E+03    6.968E-01    1.518E-02    1.523E+02    1.973E+02
    25     1.000E+04    6.244E-01    1.361E-02    5.109E+01    9.797E+01
    26     1.040E+04    7.506E-01    1.636E-02   -2.716E+01    2.160E+01
    27     1.080E+04    4.815E-01    1.049E-02   -1.363E+02   -8.564E+01
    28     1.120E+04    4.344E-01    9.467E-03    1.418E+02    1.943E+02
    29     1.160E+04    1.237E-01    2.696E-03   -7.267E+01   -1.829E+01
    30     1.200E+04    9.134E-02    1.991E-03   -1.174E+01    4.452E+01
    31     1.240E+04    5.596E-01    1.220E-02    5.932E+01    1.175E+02
    32     1.280E+04    1.912E-01    4.167E-03   -1.366E+02   -7.655E+01
    33     1.320E+04    5.330E-01    1.162E-02   -1.158E+02   -5.396E+01
    34     1.360E+04    3.903E-01    8.506E-03    1.554E+01    7.930E+01
    35     1.400E+04    3.206E-01    6.988E-03    1.322E+02    1.978E+02
    36     1.440E+04    2.709E-01    5.905E-03    1.485E+02    2.160E+02
    37     1.480E+04    2.528E-01    5.510E-03    4.469E+01    1.141E+02
    38     1.520E+04    1.719E-01    3.746E-03   -1.294E+02   -5.814E+01
    39     1.560E+04    3.160E-01    6.887E-03   -3.065E+01    4.249E+01
    40     1.600E+04    2.635E-01    5.742E-03   -7.157E+00    6.785E+01
    41     1.640E+04    1.700E-01    3.705E-03   -1.391E+02   -6.223E+01
    42     1.680E+04    5.430E-02    1.183E-03    8.289E+01    1.616E+02
    43     1.720E+04    3.967E-01    8.645E-03   -1.496E+02   -6.899E+01
    44     1.760E+04    1.977E-01    4.308E-03   -1.496E+02   -6.709E+01
    45     1.800E+04    7.620E-02    1.661E-03   -1.799E+02   -9.554E+01
    46     1.840E+04    1.272E-01    2.771E-03   -4.646E+01    3.980E+01
    47     1.880E+04    1.712E-01    3.731E-03    3.700E+01    1.251E+02
    48     1.920E+04    7.263E-02    1.583E-03    1.027E+02    1.927E+02
    49     1.960E+04    3.515E-01    7.660E-03    8.296E+01    1.749E+02
    50     2.000E+04    2.203E-01    4.802E-03    4.185E+01    1.356E+02
    51     2.040E+04    1.322E-01    2.881E-03    1.747E+02    2.704E+02
    52     2.080E+04    2.070E-01    4.510E-03    9.254E+01    1.901E+02
    53     2.120E+04    1.609E-01    3.507E-03   -1.747E+02   -7.529E+01
    54     2.160E+04    1.660E-01    3.618E-03    7.498E+01    1.762E+02
    55     2.200E+04    1.470E-01    3.205E-03   -1.215E+02   -1.835E+01
    56     2.240E+04    1.520E-01    3.312E-03    5.024E+01    1.553E+02
    57     2.280E+04    1.647E-01    3.590E-03   -1.134E+02   -6.481E+00
    58     2.320E+04    3.662E-02    7.980E-04    1.309E+02    2.397E+02
    59     2.360E+04    6.344E-02    1.383E-03   -7.091E+01    3.974E+01
    60     2.400E+04    5.458E-02    1.189E-03    1.538E+01    1.279E+02
    61     2.440E+04    2.726E-02    5.942E-04    1.292E+02    2.436E+02
    62     2.480E+04    9.075E-02    1.978E-03   -6.312E+01    5.315E+01
    63     2.520E+04    8.319E-02    1.813E-03   -8.420E+01    3.394E+01
    64     2.560E+04    5.658E-02    1.233E-03   -1.321E+01    1.068E+02
    65     2.600E+04    4.730E-02    1.031E-03    1.496E+02    2.715E+02
    66     2.640E+04    8.764E-02    1.910E-03   -9.902E+01    2.475E+01
    67     2.680E+04    7.677E-02    1.673E-03   -2.560E+00    1.231E+02
    68     2.720E+04    4.589E-02    1.000E-03   -5.698E+01    7.054E+01
    69     2.760E+04    2.761E-02    6.018E-04   -6.371E+01    6.568E+01
    70     2.800E+04    5.173E-02    1.127E-03   -1.424E+01    1.170E+02
    71     2.840E+04    3.496E-02    7.619E-04   -1.035E+02    2.960E+01
    72     2.880E+04    6.509E-02    1.419E-03   -1.084E+02    2.661E+01
    73     2.920E+04    6.027E-02    1.313E-03    2.224E+01    1.591E+02
    74     2.960E+04    2.395E-02    5.220E-04    2.918E+01    1.680E+02
    75     3.000E+04    4.896E-02    1.067E-03   -2.076E+01    1.199E+02
    76     3.040E+04    2.302E-02    5.017E-04   -7.409E+01    6.843E+01
    77     3.080E+04    4.205E-02    9.165E-04   -9.036E+01    5.404E+01
    78     3.120E+04    4.111E-02    8.959E-04   -3.485E+01    1.114E+02
    79     3.160E+04    1.953E-02    4.256E-04   -7.772E+01    7.043E+01
    80     3.200E+04    1.301E-02    2.836E-04    1.478E+01    1.648E+02
    81     3.240E+04    1.398E-02    3.046E-04    9.762E+01    2.495E+02
    82     3.280E+04    2.587E-02    5.637E-04   -1.680E+02   -1.424E+01
    83     3.320E+04    1.882E-02    4.101E-04    4.003E+01    1.957E+02
    84     3.360E+04    2.299E-02    5.011E-04   -2.856E+01    1.290E+02
    85     3.400E+04    4.874E-02    1.062E-03   -9.964E+00    1.494E+02
    86     3.440E+04    3.631E-02    7.912E-04    1.240E+01    1.737E+02
    87     3.480E+04    2.600E-02    5.666E-04   -7.312E+01    9.003E+01
    88     3.520E+04    1.127E-02    2.455E-04   -4.509E+01    1.199E+02
    89     3.560E+04    1.679E-02    3.660E-04   -1.037E+02    6.321E+01
    90     3.600E+04    6.542E-03    1.426E-04   -9.156E+01    7.722E+01
    91     3.640E+04    1.696E-02    3.696E-04   -1.023E+02    6.832E+01
    92     3.680E+04    3.153E-02    6.871E-04   -6.320E+01    1.093E+02
    93     3.720E+04    1.924E-02    4.192E-04    5.297E+00    1.797E+02
    94     3.760E+04    3.805E-04    8.293E-06   -5.496E+00    1.708E+02
    95     3.800E+04    8.842E-03    1.927E-04    1.275E+02    3.056E+02
    96     3.840E+04    3.020E-03    6.581E-05   -1.289E+02    5.114E+01
    97     3.880E+04    1.090E-02    2.375E-04    2.795E+01    2.099E+02
    98     3.920E+04    1.685E-02    3.672E-04    1.211E+02    3.049E+02
    99     3.960E+04    1.747E-02    3.807E-04   -8.689E+01    9.876E+01


     TOTAL HARMONIC DISTORTION =   5.516959E+00 PERCENT


          JOB CONCLUDED

          TOTAL JOB TIME           12.08
